T6D3C 000:008.175   SEGGER J-Link V9.38a Log File
T6D3C 000:008.270   DLL Compiled: Apr 23 2026 11:41:01
T6D3C 000:008.274   Logging started @ 2026-09-17 07:11
T6D3C 000:008.277   Process: C:\Program Files\Keil_v5\UV4\UV4.exe
T6D3C 000:008.289 - 8.280ms 
T6D3C 000:008.296 JLINK_SetWarnOutHandler(...)
T6D3C 000:008.300 - 0.005ms 
T6D3C 000:008.309 JLINK_OpenEx(...)
T6D3C 000:023.956   Firmware: J-Link V9 compiled May  7 2021 16:26:12
T6D3C 000:025.118   Firmware: J-Link V9 compiled May  7 2021 16:26:12
T6D3C 000:025.243   Decompressing FW timestamp took 109 us
T6D3C 000:032.535   Hardware: V9.60
T6D3C 000:032.560   S/N: 69660824
T6D3C 000:032.566   OEM: SEGGER
T6D3C 000:032.572   Feature(s): RDI, GDB, FlashDL, FlashBP, JFlash
T6D3C 000:033.802   Bootloader: (FW returned invalid version)
T6D3C 000:035.510   TELNET listener socket opened on port 19021
T6D3C 000:035.775   WEBSRV WEBSRV_Init(): Starting webserver thread(s)
T6D3C 000:035.841   WEBSRV Failed to put socket into listener state (port 19080)
T6D3C 000:035.928   WEBSRV Webserver running on local port 19081
T6D3C 000:036.086   Looking for J-Link GUI Server exe at: C:\Program Files\Keil_v5\ARM\Segger\JLinkGUIServer.exe
T6D3C 000:036.222   Looking for J-Link GUI Server exe at: C:\Program Files\SEGGER\JLink_V938a\JLinkGUIServer.exe
T6D3C 000:036.275   Forking J-Link GUI Server: C:\Program Files\SEGGER\JLink_V938a\JLinkGUIServer.exe
T6D3C 000:045.253   J-Link GUI Server info: "J-Link GUI server V9.38a "
T6D3C 000:045.456 - 37.137ms returns "O.K."
T6D3C 000:045.521 JLINK_GetEmuCaps()
T6D3C 000:045.529 - 0.005ms returns 0xB9FF7BBF
T6D3C 000:045.533 JLINK_TIF_GetAvailable(...)
T6D3C 000:045.933 - 0.399ms 
T6D3C 000:045.965 JLINK_SetErrorOutHandler(...)
T6D3C 000:045.968 - 0.003ms 
T6D3C 000:045.996 JLINK_ExecCommand("ProjectFile = "d:\hb\uitra_core_v1.0\MDK-ARM\JLinkSettings.ini"", ...). 
T6D3C 000:061.822   Ref file found at: C:\Program Files\Keil_v5\ARM\Segger\JLinkDevices.ref
T6D3C 000:061.937   REF file references invalid XML file: C:\Program Files\SEGGER\JLink_V938a\JLinkDevices.xml
T6D3C 000:063.003 - 17.007ms returns 0x00
T6D3C 000:063.523 JLINK_ExecCommand("Device = STM32H723VGTx", ...). 
T6D3C 000:064.857   Flash bank @ 0x08000000: SFL: Parsing sectorization info from ELF file
T6D3C 000:064.874     FlashDevice.SectorInfo[0]: .SectorSize = 0x00020000, .SectorStartAddr = 0x00000000
T6D3C 000:064.880   FlashBank @0x08000000: Sectorization info from SFL ELF file ignored because sectorization override from DLL / XML file is active.
T6D3C 000:065.212   Flash bank @ 0x90000000: SFL: Parsing sectorization info from ELF file
T6D3C 000:065.264     FlashDevice.SectorInfo[0]: .SectorSize = 0x00010000, .SectorStartAddr = 0x00000000
T6D3C 000:069.208   Device "STM32H723VG" selected.
T6D3C 000:069.598 - 6.074ms returns 0x00
T6D3C 000:069.623   ERROR: Unknown command
T6D3C 000:069.631 JLINK_GetHardwareVersion()
T6D3C 000:069.636 - 0.005ms returns 96000
T6D3C 000:069.640 JLINK_GetDLLVersion()
T6D3C 000:069.643 - 0.003ms returns 93801
T6D3C 000:069.648 JLINK_GetOEMString(...)
T6D3C 000:069.653 JLINK_GetFirmwareString(...)
T6D3C 000:069.656 - 0.003ms 
T6D3C 000:069.891 JLINK_GetDLLVersion()
T6D3C 000:069.895 - 0.004ms returns 93801
T6D3C 000:069.899 JLINK_GetCompileDateTime()
T6D3C 000:069.902 - 0.003ms 
T6D3C 000:069.954 JLINK_GetFirmwareString(...)
T6D3C 000:069.957 - 0.003ms 
T6D3C 000:070.007 JLINK_GetHardwareVersion()
T6D3C 000:070.011 - 0.003ms returns 96000
T6D3C 000:070.920 JLINK_GetSN()
T6D3C 000:070.928 - 0.007ms returns 69660824
T6D3C 000:071.535 JLINK_GetOEMString(...)
T6D3C 000:071.773 JLINK_TIF_Select(JLINKARM_TIF_SWD)
T6D3C 000:074.221 - 2.451ms returns 0x00
T6D3C 000:074.286 JLINK_HasError()
T6D3C 000:074.298 JLINK_SetSpeed(3000)
T6D3C 000:074.736 - 0.439ms 
T6D3C 000:074.758 JLINK_GetId()
T6D3C 000:075.501   ConfigTargetSettings() start
T6D3C 000:075.508    J-Link Script File: Executing ConfigTargetSettings()
T6D3C 000:075.648   ConfigTargetSettings() end - Took 24us
T6D3C 000:075.763   InitTarget() start
T6D3C 000:075.768    J-Link Script File: Executing InitTarget()
T6D3C 000:076.475   SWD selected. Executing JTAG -> SWD switching sequence.
T6D3C 000:080.991   DAP initialized successfully.
T6D3C 000:103.926   InitTarget() end - Took 27.8ms
T6D3C 000:105.430   Found SW-DP with ID 0x6BA02477
T6D3C 000:111.020   DPIDR: 0x6BA02477
T6D3C 000:111.179   CoreSight SoC-400 or earlier
T6D3C 000:111.311   Scanning AP map to find all available APs
T6D3C 000:114.475   AP[3]: Stopped AP scan as end of AP map has been reached
T6D3C 000:114.649   AP[0]: AHB-AP (IDR: 0x84770001, ADDR: 0x00000000)
T6D3C 000:114.786   AP[1]: AHB-AP (IDR: 0x84770001, ADDR: 0x01000000)
T6D3C 000:114.925   AP[2]: APB-AP (IDR: 0x54770002, ADDR: 0x02000000)
T6D3C 000:115.067   Iterating through AP map to find AHB-AP to use
T6D3C 000:117.146   AP[0]: Core found
T6D3C 000:117.288   AP[0]: AHB-AP ROM base: 0xE00FE000
T6D3C 000:118.363   CPUID register: 0x411FC272. Implementer code: 0x41 (ARM)
T6D3C 000:119.477   Cache: L1 I/D-cache present
T6D3C 000:119.602   Found Cortex-M7 r1p2, Little endian.
T6D3C 000:120.708   -- Max. mem block: 0x0000D208
T6D3C 000:123.097   CPU_ReadMem(4 bytes @ 0xE000EDF0)
T6D3C 000:123.868   CPU_ReadMem(4 bytes @ 0xE0002000)
T6D3C 000:124.977   FPUnit: 8 code (BP) slots and 0 literal slots
T6D3C 000:124.985   CPU_ReadMem(4 bytes @ 0xE000EDFC)
T6D3C 000:125.893   CPU_WriteMem(4 bytes @ 0xE000EDFC)
T6D3C 000:126.728   CPU_ReadMem(4 bytes @ 0xE0001000)
T6D3C 000:127.511   CPU_WriteMem(4 bytes @ 0xE0001000)
T6D3C 000:128.301   CPU_ReadMem(4 bytes @ 0xE000ED88)
T6D3C 000:129.028   CPU_WriteMem(4 bytes @ 0xE000ED88)
T6D3C 000:129.851   CPU_ReadMem(4 bytes @ 0xE000ED88)
T6D3C 000:130.626   CPU_WriteMem(4 bytes @ 0xE000ED88)
T6D3C 000:131.605   CoreSight components:
T6D3C 000:131.839   ROMTbl[0] @ E00FE000
T6D3C 000:131.853   CPU_ReadMem(64 bytes @ 0xE00FE000)
T6D3C 000:133.273   CPU_ReadMem(32 bytes @ 0xE00FFFE0)
T6D3C 000:134.490   [0][0]: E00FF000 CID B105100D PID 000BB4C7 ROM Table
T6D3C 000:134.613   ROMTbl[1] @ E00FF000
T6D3C 000:134.620   CPU_ReadMem(64 bytes @ 0xE00FF000)
T6D3C 000:136.074   CPU_ReadMem(32 bytes @ 0xE000EFE0)
T6D3C 000:137.391   [1][0]: E000E000 CID B105E00D PID 000BB00C SCS-M7
T6D3C 000:137.400   CPU_ReadMem(32 bytes @ 0xE0001FE0)
T6D3C 000:138.593   [1][1]: E0001000 CID B105E00D PID 000BB002 DWT
T6D3C 000:138.600   CPU_ReadMem(32 bytes @ 0xE0002FE0)
T6D3C 000:139.792   [1][2]: E0002000 CID B105E00D PID 000BB00E FPB-M7
T6D3C 000:139.798   CPU_ReadMem(32 bytes @ 0xE0000FE0)
T6D3C 000:141.005   [1][3]: E0000000 CID B105E00D PID 000BB001 ITM
T6D3C 000:141.011   CPU_ReadMem(32 bytes @ 0xE0041FE0)
T6D3C 000:142.994   [0][1]: E0041000 CID B105900D PID 001BB975 ETM-M7
T6D3C 000:143.030   CPU_ReadMem(32 bytes @ 0xE0043FE0)
T6D3C 000:145.000   [0][2]: E0043000 CID B105900D PID 004BB906 CTI
T6D3C 000:145.009   CPU_WriteMem(4 bytes @ 0xE000ED84)
T6D3C 000:145.923   CPU_ReadMem(4 bytes @ 0xE000ED80)
T6D3C 000:146.886   I-Cache L1: 32 KB, 512 Sets, 32 Bytes/Line, 2-Way
T6D3C 000:146.893   CPU_WriteMem(4 bytes @ 0xE000ED84)
T6D3C 000:147.658   CPU_ReadMem(4 bytes @ 0xE000ED80)
T6D3C 000:148.761   D-Cache L1: 32 KB, 256 Sets, 32 Bytes/Line, 4-Way
T6D3C 000:149.413 - 74.654ms returns 0x6BA02477
T6D3C 000:149.463 JLINK_GetDLLVersion()
T6D3C 000:149.467 - 0.004ms returns 93801
T6D3C 000:149.480 JLINK_CORE_GetFound()
T6D3C 000:149.484 - 0.003ms returns 0xE0100FF
T6D3C 000:149.489 JLINK_GetDebugInfo(0x100 = JLINKARM_ROM_TABLE_ADDR_INDEX)
T6D3C 000:149.494   Value=0xE00FE000
T6D3C 000:149.499 - 0.010ms returns 0
T6D3C 000:149.661 JLINK_GetDebugInfo(0x100 = JLINKARM_ROM_TABLE_ADDR_INDEX)
T6D3C 000:149.665   Value=0xE00FE000
T6D3C 000:149.671 - 0.009ms returns 0
T6D3C 000:149.675 JLINK_GetDebugInfo(0x101 = JLINKARM_DEBUG_INFO_ETM_ADDR_INDEX)
T6D3C 000:149.678   Value=0xE0041000
T6D3C 000:149.683 - 0.008ms returns 0
T6D3C 000:149.693 JLINK_ReadMemEx(0xE0041FD0, 0x20 Bytes, Flags = 0x02000004)
T6D3C 000:149.716   CPU_ReadMem(32 bytes @ 0xE0041FD0)
T6D3C 000:195.960   Data:  04 00 00 00 00 00 00 00 00 00 00 00 00 00 00 00 ...
T6D3C 000:196.011 - 46.317ms returns 32 (0x20)
T6D3C 000:196.123 JLINK_GetDebugInfo(0x102 = JLINKARM_DEBUG_INFO_MTB_ADDR_INDEX)
T6D3C 000:196.135   Value=0x00000000
T6D3C 000:196.143 - 0.020ms returns 0
T6D3C 000:196.149 JLINK_GetDebugInfo(0x103 = JLINKARM_DEBUG_INFO_TPIU_ADDR_INDEX)
T6D3C 000:196.154   Value=0xE00F5000
T6D3C 000:196.160 - 0.011ms returns 0
T6D3C 000:196.166 JLINK_GetDebugInfo(0x104 = JLINKARM_DEBUG_INFO_ITM_ADDR_INDEX)
T6D3C 000:196.170   Value=0xE0000000
T6D3C 000:196.177 - 0.011ms returns 0
T6D3C 000:196.190 JLINK_GetDebugInfo(0x105 = JLINKARM_DEBUG_INFO_DWT_ADDR_INDEX)
T6D3C 000:196.194   Value=0xE0001000
T6D3C 000:196.200 - 0.010ms returns 0
T6D3C 000:196.207 JLINK_GetDebugInfo(0x106 = JLINKARM_DEBUG_INFO_FPB_ADDR_INDEX)
T6D3C 000:196.211   Value=0xE0002000
T6D3C 000:196.218 - 0.011ms returns 0
T6D3C 000:196.224 JLINK_GetDebugInfo(0x107 = JLINKARM_DEBUG_INFO_NVIC_ADDR_INDEX)
T6D3C 000:196.228   Value=0xE000E000
T6D3C 000:196.235 - 0.011ms returns 0
T6D3C 000:196.240 JLINK_GetDebugInfo(0x10C = JLINKARM_DEBUG_INFO_DBG_ADDR_INDEX)
T6D3C 000:196.244   Value=0xE000EDF0
T6D3C 000:196.251 - 0.011ms returns 0
T6D3C 000:196.257 JLINK_GetDebugInfo(0x01 = Unknown)
T6D3C 000:196.262   Value=0x00000001
T6D3C 000:196.268 - 0.011ms returns 0
T6D3C 000:196.274 JLINK_ReadMemU32(0xE000ED00, 0x1 Items)
T6D3C 000:196.288   CPU_ReadMem(4 bytes @ 0xE000ED00)
T6D3C 000:198.017   Data:  72 C2 1F 41
T6D3C 000:198.056   Debug reg: CPUID
T6D3C 000:198.062 - 1.787ms returns 1 (0x1)
T6D3C 000:198.132 JLINK_GetDebugInfo(0x10F = JLINKARM_DEBUG_INFO_HAS_CORTEX_M_SECURITY_EXT_INDEX)
T6D3C 000:198.139   Value=0x00000000
T6D3C 000:198.144 - 0.012ms returns 0
T6D3C 000:198.149 JLINK_HasError()
T6D3C 000:198.156 JLINK_SetResetType(JLINKARM_CM3_RESET_TYPE_NORMAL)
T6D3C 000:198.160 - 0.004ms returns JLINKARM_CM3_RESET_TYPE_NORMAL
T6D3C 000:198.164 JLINK_Reset()
T6D3C 000:200.032   JLINK_GetResetTypeDesc
T6D3C 000:200.063   - 0.030ms 
T6D3C 000:200.444   Reset type: NORMAL (https://kb.segger.com/J-Link_Reset_Strategies)
T6D3C 000:200.464   CPU is running
T6D3C 000:200.473   CPU_WriteMem(4 bytes @ 0xE000EDF0)
T6D3C 000:201.552   CPU is running
T6D3C 000:201.617   CPU_WriteMem(4 bytes @ 0xE000EDFC)
T6D3C 000:202.822   Reset: Halt core after reset via DEMCR.VC_CORERESET.
T6D3C 000:204.108   Reset: Reset device via AIRCR.SYSRESETREQ.
T6D3C 000:204.119   CPU is running
T6D3C 000:204.129   CPU_WriteMem(4 bytes @ 0xE000ED0C)
T6D3C 000:259.920   CPU_ReadMem(4 bytes @ 0xE000EDF0)
T6D3C 000:260.729   CPU_ReadMem(4 bytes @ 0xE000EDF0)
T6D3C 000:266.951   CPU_WriteMem(4 bytes @ 0xE000EDFC)
T6D3C 000:273.325   CPU_ReadMem(4 bytes @ 0xE000EDF0)
T6D3C 000:279.726   CPU_WriteMem(4 bytes @ 0xE0002000)
T6D3C 000:280.620   CPU_ReadMem(4 bytes @ 0xE000EDFC)
T6D3C 000:281.509   CPU_ReadMem(4 bytes @ 0xE0001000)
T6D3C 000:282.602 - 84.436ms 
T6D3C 000:282.655 JLINK_Halt()
T6D3C 000:282.660 - 0.005ms returns 0x00
T6D3C 000:282.665 JLINK_ReadMemU32(0xE000EDF0, 0x1 Items)
T6D3C 000:282.676   CPU_ReadMem(4 bytes @ 0xE000EDF0)
T6D3C 000:283.554   Data:  03 00 03 00
T6D3C 000:283.570   Debug reg: DHCSR
T6D3C 000:283.576 - 0.910ms returns 1 (0x1)
T6D3C 000:283.624 JLINK_WriteU32(0xE000EDF0, 0xA05F0003)
T6D3C 000:283.629   Debug reg: DHCSR
T6D3C 000:283.913   CPU_WriteMem(4 bytes @ 0xE000EDF0)
T6D3C 000:328.594 - 44.968ms returns 0 (0x00000000)
T6D3C 000:328.667 JLINK_WriteU32(0xE000EDFC, 0x01000000)
T6D3C 000:328.675   Debug reg: DEMCR
T6D3C 000:328.690   CPU_WriteMem(4 bytes @ 0xE000EDFC)
T6D3C 000:329.314 - 0.647ms returns 0 (0x00000000)
T6D3C 000:329.967 JLINK_GetHWStatus(...)
T6D3C 000:330.336 - 0.369ms returns 0
T6D3C 000:330.694 JLINK_GetNumBPUnits(Type = 0xFFFFFF00)
T6D3C 000:330.699 - 0.004ms returns 0x08
T6D3C 000:330.703 JLINK_GetNumBPUnits(Type = 0xF0)
T6D3C 000:330.707 - 0.003ms returns 0x2000
T6D3C 000:330.711 JLINK_GetNumWPUnits()
T6D3C 000:330.714 - 0.003ms returns 4
T6D3C 000:331.043 JLINK_GetSpeed()
T6D3C 000:331.047 - 0.003ms returns 3000
T6D3C 000:331.274 JLINK_ReadMemU32(0xE000E004, 0x1 Items)
T6D3C 000:331.284   CPU_ReadMem(4 bytes @ 0xE000E004)
T6D3C 000:331.975   Data:  05 00 00 00
T6D3C 000:331.983 - 0.710ms returns 1 (0x1)
T6D3C 000:332.001 JLINK_ReadMemU32(0xE000E004, 0x1 Items)
T6D3C 000:332.006   CPU_ReadMem(4 bytes @ 0xE000E004)
T6D3C 000:332.845   Data:  05 00 00 00
T6D3C 000:332.854 - 0.853ms returns 1 (0x1)
T6D3C 000:332.893 JLINK_WriteMemEx(0xE0001000, 0x0000001C Bytes, Flags = 0x02000004)
T6D3C 000:332.897   Data:  01 00 00 00 00 00 00 00 00 00 00 00 00 00 00 00 ...
T6D3C 000:332.913   CPU_WriteMem(28 bytes @ 0xE0001000)
T6D3C 000:334.081 - 1.188ms returns 0x1C
T6D3C 000:334.126 JLINK_Halt()
T6D3C 000:334.138 - 0.011ms returns 0x00
T6D3C 000:334.142 JLINK_IsHalted()
T6D3C 000:334.146 - 0.004ms returns TRUE
T6D3C 000:335.156 JLINK_WriteMem(0x20000000, 0x250 Bytes, ...)
T6D3C 000:335.164   Data:  00 BE 0A E0 0D 78 2D 06 68 40 08 24 40 00 00 D3 ...
T6D3C 000:335.403   CPU_WriteMem(592 bytes @ 0x20000000)
T6D3C 000:341.305 - 6.149ms returns 0x250
T6D3C 000:341.350 JLINK_HasError()
T6D3C 000:341.366 JLINK_WriteReg(R0, 0x08000000)
T6D3C 000:341.371 - 0.015ms returns 0
T6D3C 000:341.376 JLINK_WriteReg(R1, 0x016E3600)
T6D3C 000:341.379 - 0.003ms returns 0
T6D3C 000:341.383 JLINK_WriteReg(R2, 0x00000001)
T6D3C 000:341.386 - 0.003ms returns 0
T6D3C 000:341.390 JLINK_WriteReg(R3, 0x00000000)
T6D3C 000:341.394 - 0.003ms returns 0
T6D3C 000:341.398 JLINK_WriteReg(R4, 0x00000000)
T6D3C 000:341.401 - 0.003ms returns 0
T6D3C 000:341.405 JLINK_WriteReg(R5, 0x00000000)
T6D3C 000:341.408 - 0.003ms returns 0
T6D3C 000:341.412 JLINK_WriteReg(R6, 0x00000000)
T6D3C 000:341.415 - 0.003ms returns 0
T6D3C 000:341.419 JLINK_WriteReg(R7, 0x00000000)
T6D3C 000:341.422 - 0.003ms returns 0
T6D3C 000:341.426 JLINK_WriteReg(R8, 0x00000000)
T6D3C 000:341.430 - 0.003ms returns 0
T6D3C 000:341.434 JLINK_WriteReg(R9, 0x2000024C)
T6D3C 000:341.437 - 0.003ms returns 0
T6D3C 000:341.441 JLINK_WriteReg(R10, 0x00000000)
T6D3C 000:341.444 - 0.003ms returns 0
T6D3C 000:341.448 JLINK_WriteReg(R11, 0x00000000)
T6D3C 000:341.451 - 0.003ms returns 0
T6D3C 000:341.455 JLINK_WriteReg(R12, 0x00000000)
T6D3C 000:341.458 - 0.003ms returns 0
T6D3C 000:341.462 JLINK_WriteReg(R13 (SP), 0x20008000)
T6D3C 000:341.466 - 0.003ms returns 0
T6D3C 000:341.470 JLINK_WriteReg(R14, 0x20000001)
T6D3C 000:341.473 - 0.003ms returns 0
T6D3C 000:341.480 JLINK_WriteReg(R15 (PC), 0x20000038)
T6D3C 000:341.484 - 0.006ms returns 0
T6D3C 000:341.488 JLINK_WriteReg(XPSR, 0x01000000)
T6D3C 000:341.491 - 0.003ms returns 0
T6D3C 000:341.495 JLINK_WriteReg(MSP, 0x20008000)
T6D3C 000:341.499 - 0.003ms returns 0
T6D3C 000:341.502 JLINK_WriteReg(PSP, 0x20008000)
T6D3C 000:341.506 - 0.003ms returns 0
T6D3C 000:341.510 JLINK_WriteReg(CFBP, 0x00000000)
T6D3C 000:341.513 - 0.003ms returns 0
T6D3C 000:341.521 JLINK_SetBPEx(Addr = 0x20000000, Type = 0xFFFFFFF2)
T6D3C 000:341.525 - 0.004ms returns 0x00000001
T6D3C 000:341.529 JLINK_Go()
T6D3C 000:341.536   CPU_WriteMem(4 bytes @ 0xE0002000)
T6D3C 000:342.191   CPU_ReadMem(4 bytes @ 0xE0001000)
T6D3C 000:342.781   CPU_WriteMem(4 bytes @ 0xE0002008)
T6D3C 000:342.787   CPU_WriteMem(4 bytes @ 0xE000200C)
T6D3C 000:342.792   CPU_WriteMem(4 bytes @ 0xE0002010)
T6D3C 000:342.797   CPU_WriteMem(4 bytes @ 0xE0002014)
T6D3C 000:342.801   CPU_WriteMem(4 bytes @ 0xE0002018)
T6D3C 000:342.806   CPU_WriteMem(4 bytes @ 0xE000201C)
T6D3C 000:342.811   CPU_WriteMem(4 bytes @ 0xE0002020)
T6D3C 000:342.816   CPU_WriteMem(4 bytes @ 0xE0002024)
T6D3C 000:345.704   CPU_WriteMem(4 bytes @ 0xE0001004)
T6D3C 000:351.568   Memory map 'after startup completion point' is active
T6D3C 000:351.578 - 10.047ms 
T6D3C 000:351.610 JLINK_IsHalted()
T6D3C 000:356.542 - 4.931ms returns TRUE
T6D3C 000:356.573 JLINK_ReadReg(R15 (PC))
T6D3C 000:356.578 - 0.005ms returns 0x20000000
T6D3C 000:356.594 JLINK_ClrBPEx(BPHandle = 0x00000001)
T6D3C 000:356.599 - 0.005ms returns 0x00
T6D3C 000:356.605 JLINK_ReadReg(R0)
T6D3C 000:356.609 - 0.004ms returns 0x00000000
T6D3C 000:356.679 JLINK_HasError()
T6D3C 000:356.685 JLINK_WriteReg(R0, 0x08000000)
T6D3C 000:356.690 - 0.004ms returns 0
T6D3C 000:356.695 JLINK_WriteReg(R1, 0x00020000)
T6D3C 000:356.699 - 0.004ms returns 0
T6D3C 000:356.704 JLINK_WriteReg(R2, 0x000000FF)
T6D3C 000:356.708 - 0.004ms returns 0
T6D3C 000:356.713 JLINK_WriteReg(R3, 0x00000000)
T6D3C 000:356.717 - 0.004ms returns 0
T6D3C 000:356.722 JLINK_WriteReg(R4, 0x00000000)
T6D3C 000:356.726 - 0.004ms returns 0
T6D3C 000:356.731 JLINK_WriteReg(R5, 0x00000000)
T6D3C 000:356.735 - 0.004ms returns 0
T6D3C 000:356.740 JLINK_WriteReg(R6, 0x00000000)
T6D3C 000:356.744 - 0.004ms returns 0
T6D3C 000:356.749 JLINK_WriteReg(R7, 0x00000000)
T6D3C 000:356.753 - 0.004ms returns 0
T6D3C 000:356.758 JLINK_WriteReg(R8, 0x00000000)
T6D3C 000:356.762 - 0.004ms returns 0
T6D3C 000:356.767 JLINK_WriteReg(R9, 0x2000024C)
T6D3C 000:356.771 - 0.004ms returns 0
T6D3C 000:356.776 JLINK_WriteReg(R10, 0x00000000)
T6D3C 000:356.780 - 0.004ms returns 0
T6D3C 000:356.785 JLINK_WriteReg(R11, 0x00000000)
T6D3C 000:356.789 - 0.004ms returns 0
T6D3C 000:356.794 JLINK_WriteReg(R12, 0x00000000)
T6D3C 000:356.798 - 0.004ms returns 0
T6D3C 000:356.803 JLINK_WriteReg(R13 (SP), 0x20008000)
T6D3C 000:356.808 - 0.004ms returns 0
T6D3C 000:356.813 JLINK_WriteReg(R14, 0x20000001)
T6D3C 000:356.817 - 0.004ms returns 0
T6D3C 000:356.822 JLINK_WriteReg(R15 (PC), 0x20000020)
T6D3C 000:356.826 - 0.004ms returns 0
T6D3C 000:356.831 JLINK_WriteReg(XPSR, 0x01000000)
T6D3C 000:356.835 - 0.004ms returns 0
T6D3C 000:356.840 JLINK_WriteReg(MSP, 0x20008000)
T6D3C 000:356.844 - 0.004ms returns 0
T6D3C 000:356.849 JLINK_WriteReg(PSP, 0x20008000)
T6D3C 000:356.853 - 0.004ms returns 0
T6D3C 000:356.858 JLINK_WriteReg(CFBP, 0x00000000)
T6D3C 000:356.862 - 0.004ms returns 0
T6D3C 000:356.868 JLINK_SetBPEx(Addr = 0x20000000, Type = 0xFFFFFFF2)
T6D3C 000:356.873 - 0.005ms returns 0x00000002
T6D3C 000:356.878 JLINK_Go()
T6D3C 000:356.886   CPU_WriteMem(4 bytes @ 0xE0002000)
T6D3C 000:357.529   CPU_ReadMem(4 bytes @ 0xE0001000)
T6D3C 000:363.234 - 6.355ms 
T6D3C 000:363.264 JLINK_IsHalted()
T6D3C 000:363.981 - 0.715ms returns FALSE
T6D3C 000:364.072 JLINK_HasError()
T6D3C 000:368.016 JLINK_IsHalted()
T6D3C 000:368.818 - 0.801ms returns FALSE
T6D3C 000:368.842 JLINK_HasError()
T6D3C 000:370.995 JLINK_IsHalted()
T6D3C 000:371.685 - 0.690ms returns FALSE
T6D3C 000:371.704 JLINK_HasError()
T6D3C 000:373.984 JLINK_IsHalted()
T6D3C 000:374.647 - 0.663ms returns FALSE
T6D3C 000:374.663 JLINK_HasError()
T6D3C 000:376.973 JLINK_IsHalted()
T6D3C 000:377.605 - 0.631ms returns FALSE
T6D3C 000:377.621 JLINK_HasError()
T6D3C 000:381.965 JLINK_IsHalted()
T6D3C 000:387.508 - 5.542ms returns TRUE
T6D3C 000:387.547 JLINK_ReadReg(R15 (PC))
T6D3C 000:387.553 - 0.005ms returns 0x20000000
T6D3C 000:387.562 JLINK_ClrBPEx(BPHandle = 0x00000002)
T6D3C 000:387.566 - 0.004ms returns 0x00
T6D3C 000:387.570 JLINK_ReadReg(R0)
T6D3C 000:387.574 - 0.003ms returns 0x00000000
T6D3C 000:387.651 JLINK_HasError()
T6D3C 000:387.656 JLINK_WriteReg(R0, 0x00000001)
T6D3C 000:387.660 - 0.003ms returns 0
T6D3C 000:387.664 JLINK_WriteReg(R1, 0x00020000)
T6D3C 000:387.667 - 0.003ms returns 0
T6D3C 000:387.671 JLINK_WriteReg(R2, 0x000000FF)
T6D3C 000:387.674 - 0.003ms returns 0
T6D3C 000:387.678 JLINK_WriteReg(R3, 0x00000000)
T6D3C 000:387.682 - 0.003ms returns 0
T6D3C 000:387.685 JLINK_WriteReg(R4, 0x00000000)
T6D3C 000:387.689 - 0.003ms returns 0
T6D3C 000:387.693 JLINK_WriteReg(R5, 0x00000000)
T6D3C 000:387.696 - 0.003ms returns 0
T6D3C 000:387.700 JLINK_WriteReg(R6, 0x00000000)
T6D3C 000:387.703 - 0.003ms returns 0
T6D3C 000:387.707 JLINK_WriteReg(R7, 0x00000000)
T6D3C 000:387.710 - 0.003ms returns 0
T6D3C 000:387.714 JLINK_WriteReg(R8, 0x00000000)
T6D3C 000:387.717 - 0.003ms returns 0
T6D3C 000:387.721 JLINK_WriteReg(R9, 0x2000024C)
T6D3C 000:387.725 - 0.003ms returns 0
T6D3C 000:387.729 JLINK_WriteReg(R10, 0x00000000)
T6D3C 000:387.732 - 0.003ms returns 0
T6D3C 000:387.741 JLINK_WriteReg(R11, 0x00000000)
T6D3C 000:387.747 - 0.005ms returns 0
T6D3C 000:387.750 JLINK_WriteReg(R12, 0x00000000)
T6D3C 000:387.754 - 0.003ms returns 0
T6D3C 000:387.758 JLINK_WriteReg(R13 (SP), 0x20008000)
T6D3C 000:387.761 - 0.003ms returns 0
T6D3C 000:387.765 JLINK_WriteReg(R14, 0x20000001)
T6D3C 000:387.768 - 0.003ms returns 0
T6D3C 000:387.772 JLINK_WriteReg(R15 (PC), 0x20000060)
T6D3C 000:387.776 - 0.003ms returns 0
T6D3C 000:387.780 JLINK_WriteReg(XPSR, 0x01000000)
T6D3C 000:387.783 - 0.003ms returns 0
T6D3C 000:387.787 JLINK_WriteReg(MSP, 0x20008000)
T6D3C 000:387.790 - 0.003ms returns 0
T6D3C 000:387.794 JLINK_WriteReg(PSP, 0x20008000)
T6D3C 000:387.797 - 0.003ms returns 0
T6D3C 000:387.801 JLINK_WriteReg(CFBP, 0x00000000)
T6D3C 000:387.804 - 0.003ms returns 0
T6D3C 000:387.809 JLINK_SetBPEx(Addr = 0x20000000, Type = 0xFFFFFFF2)
T6D3C 000:387.813 - 0.004ms returns 0x00000003
T6D3C 000:387.817 JLINK_Go()
T6D3C 000:387.826   CPU_WriteMem(4 bytes @ 0xE0002000)
T6D3C 000:388.482   CPU_ReadMem(4 bytes @ 0xE0001000)
T6D3C 000:394.052 - 6.234ms 
T6D3C 000:394.107 JLINK_IsHalted()
T6D3C 000:399.219 - 5.110ms returns TRUE
T6D3C 000:399.269 JLINK_ReadReg(R15 (PC))
T6D3C 000:399.278 - 0.008ms returns 0x20000000
T6D3C 000:399.285 JLINK_ClrBPEx(BPHandle = 0x00000003)
T6D3C 000:399.292 - 0.006ms returns 0x00
T6D3C 000:399.299 JLINK_ReadReg(R0)
T6D3C 000:399.305 - 0.005ms returns 0x00000000
T6D3C 000:451.659 JLINK_WriteMem(0x20000000, 0x250 Bytes, ...)
T6D3C 000:451.676   Data:  00 BE 0A E0 0D 78 2D 06 68 40 08 24 40 00 00 D3 ...
T6D3C 000:451.699   CPU_WriteMem(592 bytes @ 0x20000000)
T6D3C 000:457.665 - 6.005ms returns 0x250
T6D3C 000:457.834 JLINK_HasError()
T6D3C 000:457.848 JLINK_WriteReg(R0, 0x08000000)
T6D3C 000:457.859 - 0.010ms returns 0
T6D3C 000:457.868 JLINK_WriteReg(R1, 0x016E3600)
T6D3C 000:457.875 - 0.007ms returns 0
T6D3C 000:457.883 JLINK_WriteReg(R2, 0x00000002)
T6D3C 000:457.890 - 0.007ms returns 0
T6D3C 000:457.899 JLINK_WriteReg(R3, 0x00000000)
T6D3C 000:457.906 - 0.007ms returns 0
T6D3C 000:457.915 JLINK_WriteReg(R4, 0x00000000)
T6D3C 000:457.922 - 0.007ms returns 0
T6D3C 000:457.930 JLINK_WriteReg(R5, 0x00000000)
T6D3C 000:457.937 - 0.007ms returns 0
T6D3C 000:457.946 JLINK_WriteReg(R6, 0x00000000)
T6D3C 000:457.953 - 0.007ms returns 0
T6D3C 000:457.961 JLINK_WriteReg(R7, 0x00000000)
T6D3C 000:457.968 - 0.007ms returns 0
T6D3C 000:457.976 JLINK_WriteReg(R8, 0x00000000)
T6D3C 000:457.983 - 0.007ms returns 0
T6D3C 000:457.992 JLINK_WriteReg(R9, 0x2000024C)
T6D3C 000:457.999 - 0.007ms returns 0
T6D3C 000:458.007 JLINK_WriteReg(R10, 0x00000000)
T6D3C 000:458.014 - 0.007ms returns 0
T6D3C 000:458.023 JLINK_WriteReg(R11, 0x00000000)
T6D3C 000:458.030 - 0.007ms returns 0
T6D3C 000:458.038 JLINK_WriteReg(R12, 0x00000000)
T6D3C 000:458.045 - 0.007ms returns 0
T6D3C 000:458.054 JLINK_WriteReg(R13 (SP), 0x20008000)
T6D3C 000:458.062 - 0.008ms returns 0
T6D3C 000:458.070 JLINK_WriteReg(R14, 0x20000001)
T6D3C 000:458.078 - 0.008ms returns 0
T6D3C 000:458.086 JLINK_WriteReg(R15 (PC), 0x20000038)
T6D3C 000:458.093 - 0.007ms returns 0
T6D3C 000:458.101 JLINK_WriteReg(XPSR, 0x01000000)
T6D3C 000:458.108 - 0.007ms returns 0
T6D3C 000:458.115 JLINK_WriteReg(MSP, 0x20008000)
T6D3C 000:458.122 - 0.006ms returns 0
T6D3C 000:458.130 JLINK_WriteReg(PSP, 0x20008000)
T6D3C 000:458.137 - 0.006ms returns 0
T6D3C 000:458.145 JLINK_WriteReg(CFBP, 0x00000000)
T6D3C 000:458.151 - 0.006ms returns 0
T6D3C 000:458.162 JLINK_SetBPEx(Addr = 0x20000000, Type = 0xFFFFFFF2)
T6D3C 000:458.171 - 0.010ms returns 0x00000004
T6D3C 000:458.179 JLINK_Go()
T6D3C 000:458.193   CPU_WriteMem(4 bytes @ 0xE0002000)
T6D3C 000:458.947   CPU_ReadMem(4 bytes @ 0xE0001000)
T6D3C 000:464.786 - 6.604ms 
T6D3C 000:464.919 JLINK_IsHalted()
T6D3C 000:470.994 - 6.074ms returns TRUE
T6D3C 000:471.070 JLINK_ReadReg(R15 (PC))
T6D3C 000:471.078 - 0.008ms returns 0x20000000
T6D3C 000:471.088 JLINK_ClrBPEx(BPHandle = 0x00000004)
T6D3C 000:471.094 - 0.006ms returns 0x00
T6D3C 000:471.109 JLINK_ReadReg(R0)
T6D3C 000:471.114 - 0.005ms returns 0x00000000
T6D3C 000:471.151 JLINK_WriteMem(0x20000250, 0x1B0 Bytes, ...)
T6D3C 000:471.157   Data:  88 34 00 24 E1 03 00 08 81 D1 00 08 19 B5 00 08 ...
T6D3C 000:471.175   CPU_WriteMem(432 bytes @ 0x20000250)
T6D3C 000:475.947 - 4.795ms returns 0x1B0
T6D3C 000:475.988 JLINK_WriteMem(0x20000400, 0x250 Bytes, ...)
T6D3C 000:475.996   Data:  FF 03 00 08 FF 03 00 08 FF 03 00 08 FF 03 00 08 ...
T6D3C 000:476.013   CPU_WriteMem(592 bytes @ 0x20000400)
T6D3C 000:482.330 - 6.340ms returns 0x250
T6D3C 000:482.440 JLINK_HasError()
T6D3C 000:482.455 JLINK_WriteReg(R0, 0x08000000)
T6D3C 000:482.466 - 0.011ms returns 0
T6D3C 000:482.476 JLINK_WriteReg(R1, 0x00000400)
T6D3C 000:482.484 - 0.008ms returns 0
T6D3C 000:482.494 JLINK_WriteReg(R2, 0x20000250)
T6D3C 000:482.501 - 0.008ms returns 0
T6D3C 000:482.511 JLINK_WriteReg(R3, 0x00000000)
T6D3C 000:482.518 - 0.007ms returns 0
T6D3C 000:482.527 JLINK_WriteReg(R4, 0x00000000)
T6D3C 000:482.535 - 0.007ms returns 0
T6D3C 000:482.544 JLINK_WriteReg(R5, 0x00000000)
T6D3C 000:482.552 - 0.007ms returns 0
T6D3C 000:482.561 JLINK_WriteReg(R6, 0x00000000)
T6D3C 000:482.569 - 0.007ms returns 0
T6D3C 000:482.578 JLINK_WriteReg(R7, 0x00000000)
T6D3C 000:482.586 - 0.007ms returns 0
T6D3C 000:482.596 JLINK_WriteReg(R8, 0x00000000)
T6D3C 000:482.603 - 0.007ms returns 0
T6D3C 000:482.613 JLINK_WriteReg(R9, 0x2000024C)
T6D3C 000:482.621 - 0.007ms returns 0
T6D3C 000:482.630 JLINK_WriteReg(R10, 0x00000000)
T6D3C 000:482.638 - 0.008ms returns 0
T6D3C 000:482.647 JLINK_WriteReg(R11, 0x00000000)
T6D3C 000:482.655 - 0.008ms returns 0
T6D3C 000:482.664 JLINK_WriteReg(R12, 0x00000000)
T6D3C 000:482.672 - 0.007ms returns 0
T6D3C 000:482.681 JLINK_WriteReg(R13 (SP), 0x20008000)
T6D3C 000:482.690 - 0.009ms returns 0
T6D3C 000:482.699 JLINK_WriteReg(R14, 0x20000001)
T6D3C 000:482.707 - 0.007ms returns 0
T6D3C 000:482.717 JLINK_WriteReg(R15 (PC), 0x2000014C)
T6D3C 000:482.725 - 0.008ms returns 0
T6D3C 000:482.734 JLINK_WriteReg(XPSR, 0x01000000)
T6D3C 000:482.745 - 0.011ms returns 0
T6D3C 000:482.755 JLINK_WriteReg(MSP, 0x20008000)
T6D3C 000:482.762 - 0.007ms returns 0
T6D3C 000:482.771 JLINK_WriteReg(PSP, 0x20008000)
T6D3C 000:482.779 - 0.007ms returns 0
T6D3C 000:482.788 JLINK_WriteReg(CFBP, 0x00000000)
T6D3C 000:482.796 - 0.007ms returns 0
T6D3C 000:482.807 JLINK_SetBPEx(Addr = 0x20000000, Type = 0xFFFFFFF2)
T6D3C 000:482.818 - 0.011ms returns 0x00000005
T6D3C 000:482.827 JLINK_Go()
T6D3C 000:482.843   CPU_WriteMem(4 bytes @ 0xE0002000)
T6D3C 000:483.737   CPU_ReadMem(4 bytes @ 0xE0001000)
T6D3C 000:489.988 - 7.159ms 
T6D3C 000:490.116 JLINK_IsHalted()
T6D3C 000:491.023 - 0.906ms returns FALSE
T6D3C 000:491.081 JLINK_HasError()
T6D3C 000:493.593 JLINK_IsHalted()
T6D3C 000:494.479 - 0.884ms returns FALSE
T6D3C 000:494.602 JLINK_HasError()
T6D3C 000:496.589 JLINK_IsHalted()
T6D3C 000:497.596 - 1.006ms returns FALSE
T6D3C 000:497.727 JLINK_HasError()
T6D3C 000:499.594 JLINK_IsHalted()
T6D3C 000:505.316 - 5.720ms returns TRUE
T6D3C 000:505.389 JLINK_ReadReg(R15 (PC))
T6D3C 000:505.401 - 0.012ms returns 0x20000000
T6D3C 000:505.413 JLINK_ClrBPEx(BPHandle = 0x00000005)
T6D3C 000:505.423 - 0.010ms returns 0x00
T6D3C 000:505.435 JLINK_ReadReg(R0)
T6D3C 000:505.444 - 0.009ms returns 0x00000000
T6D3C 000:505.512 JLINK_WriteMem(0x20000250, 0x1B0 Bytes, ...)
T6D3C 000:505.523   Data:  05 48 06 49 06 4A 07 4B 70 47 00 00 C1 11 00 08 ...
T6D3C 000:505.552   CPU_WriteMem(432 bytes @ 0x20000250)
T6D3C 000:553.626 - 48.114ms returns 0x1B0
T6D3C 000:553.699 JLINK_WriteMem(0x20000400, 0x250 Bytes, ...)
T6D3C 000:553.705   Data:  A0 E8 18 50 B1 E8 18 50 A0 E8 18 50 20 3A BF F4 ...
T6D3C 000:553.720   CPU_WriteMem(592 bytes @ 0x20000400)
T6D3C 000:559.524 - 5.825ms returns 0x250
T6D3C 000:559.548 JLINK_HasError()
T6D3C 000:559.554 JLINK_WriteReg(R0, 0x08000400)
T6D3C 000:559.558 - 0.004ms returns 0
T6D3C 000:559.562 JLINK_WriteReg(R1, 0x00000400)
T6D3C 000:559.566 - 0.003ms returns 0
T6D3C 000:559.577 JLINK_WriteReg(R2, 0x20000250)
T6D3C 000:559.580 - 0.003ms returns 0
T6D3C 000:559.584 JLINK_WriteReg(R3, 0x00000000)
T6D3C 000:559.587 - 0.003ms returns 0
T6D3C 000:559.591 JLINK_WriteReg(R4, 0x00000000)
T6D3C 000:559.595 - 0.003ms returns 0
T6D3C 000:559.598 JLINK_WriteReg(R5, 0x00000000)
T6D3C 000:559.602 - 0.003ms returns 0
T6D3C 000:559.606 JLINK_WriteReg(R6, 0x00000000)
T6D3C 000:559.609 - 0.003ms returns 0
T6D3C 000:559.613 JLINK_WriteReg(R7, 0x00000000)
T6D3C 000:559.616 - 0.003ms returns 0
T6D3C 000:559.621 JLINK_WriteReg(R8, 0x00000000)
T6D3C 000:559.624 - 0.003ms returns 0
T6D3C 000:559.628 JLINK_WriteReg(R9, 0x2000024C)
T6D3C 000:559.631 - 0.003ms returns 0
T6D3C 000:559.635 JLINK_WriteReg(R10, 0x00000000)
T6D3C 000:559.638 - 0.003ms returns 0
T6D3C 000:559.642 JLINK_WriteReg(R11, 0x00000000)
T6D3C 000:559.645 - 0.003ms returns 0
T6D3C 000:559.649 JLINK_WriteReg(R12, 0x00000000)
T6D3C 000:559.652 - 0.003ms returns 0
T6D3C 000:559.656 JLINK_WriteReg(R13 (SP), 0x20008000)
T6D3C 000:559.660 - 0.004ms returns 0
T6D3C 000:559.664 JLINK_WriteReg(R14, 0x20000001)
T6D3C 000:559.667 - 0.003ms returns 0
T6D3C 000:559.671 JLINK_WriteReg(R15 (PC), 0x2000014C)
T6D3C 000:559.675 - 0.003ms returns 0
T6D3C 000:559.679 JLINK_WriteReg(XPSR, 0x01000000)
T6D3C 000:559.682 - 0.003ms returns 0
T6D3C 000:559.686 JLINK_WriteReg(MSP, 0x20008000)
T6D3C 000:559.689 - 0.003ms returns 0
T6D3C 000:559.693 JLINK_WriteReg(PSP, 0x20008000)
T6D3C 000:559.696 - 0.003ms returns 0
T6D3C 000:559.700 JLINK_WriteReg(CFBP, 0x00000000)
T6D3C 000:559.704 - 0.003ms returns 0
T6D3C 000:559.708 JLINK_SetBPEx(Addr = 0x20000000, Type = 0xFFFFFFF2)
T6D3C 000:559.713 - 0.005ms returns 0x00000006
T6D3C 000:559.717 JLINK_Go()
T6D3C 000:559.723   CPU_WriteMem(4 bytes @ 0xE0002000)
T6D3C 000:560.348   CPU_ReadMem(4 bytes @ 0xE0001000)
T6D3C 000:566.017 - 6.299ms 
T6D3C 000:566.064 JLINK_IsHalted()
T6D3C 000:566.824 - 0.760ms returns FALSE
T6D3C 000:566.840 JLINK_HasError()
T6D3C 000:568.034 JLINK_IsHalted()
T6D3C 000:569.073 - 1.038ms returns FALSE
T6D3C 000:569.109 JLINK_HasError()
T6D3C 000:571.017 JLINK_IsHalted()
T6D3C 000:573.548 - 2.530ms returns FALSE
T6D3C 000:573.567 JLINK_HasError()
T6D3C 000:575.009 JLINK_IsHalted()
T6D3C 000:580.437 - 5.427ms returns TRUE
T6D3C 000:580.463 JLINK_ReadReg(R15 (PC))
T6D3C 000:580.468 - 0.005ms returns 0x20000000
T6D3C 000:580.473 JLINK_ClrBPEx(BPHandle = 0x00000006)
T6D3C 000:580.478 - 0.004ms returns 0x00
T6D3C 000:580.483 JLINK_ReadReg(R0)
T6D3C 000:580.487 - 0.003ms returns 0x00000000
T6D3C 000:580.527 JLINK_WriteMem(0x20000250, 0x1B0 Bytes, ...)
T6D3C 000:580.531   Data:  02 01 88 42 18 D1 42 F2 08 30 C4 F2 02 00 00 68 ...
T6D3C 000:580.544   CPU_WriteMem(432 bytes @ 0x20000250)
T6D3C 000:585.069 - 4.542ms returns 0x1B0
T6D3C 000:585.130 JLINK_WriteMem(0x20000400, 0x250 Bytes, ...)
T6D3C 000:585.136   Data:  C9 07 01 D1 00 20 B0 BD 05 46 02 E0 80 68 C0 07 ...
T6D3C 000:585.150   CPU_WriteMem(592 bytes @ 0x20000400)
T6D3C 000:590.954 - 5.824ms returns 0x250
T6D3C 000:591.008 JLINK_HasError()
T6D3C 000:591.016 JLINK_WriteReg(R0, 0x08000800)
T6D3C 000:591.020 - 0.005ms returns 0
T6D3C 000:591.025 JLINK_WriteReg(R1, 0x00000400)
T6D3C 000:591.028 - 0.003ms returns 0
T6D3C 000:591.032 JLINK_WriteReg(R2, 0x20000250)
T6D3C 000:591.035 - 0.003ms returns 0
T6D3C 000:591.039 JLINK_WriteReg(R3, 0x00000000)
T6D3C 000:591.042 - 0.003ms returns 0
T6D3C 000:591.046 JLINK_WriteReg(R4, 0x00000000)
T6D3C 000:591.049 - 0.003ms returns 0
T6D3C 000:591.053 JLINK_WriteReg(R5, 0x00000000)
T6D3C 000:591.057 - 0.003ms returns 0
T6D3C 000:591.060 JLINK_WriteReg(R6, 0x00000000)
T6D3C 000:591.064 - 0.003ms returns 0
T6D3C 000:591.067 JLINK_WriteReg(R7, 0x00000000)
T6D3C 000:591.071 - 0.003ms returns 0
T6D3C 000:591.075 JLINK_WriteReg(R8, 0x00000000)
T6D3C 000:591.078 - 0.003ms returns 0
T6D3C 000:591.082 JLINK_WriteReg(R9, 0x2000024C)
T6D3C 000:591.085 - 0.003ms returns 0
T6D3C 000:591.089 JLINK_WriteReg(R10, 0x00000000)
T6D3C 000:591.138 - 0.049ms returns 0
T6D3C 000:591.145 JLINK_WriteReg(R11, 0x00000000)
T6D3C 000:591.148 - 0.003ms returns 0
T6D3C 000:591.152 JLINK_WriteReg(R12, 0x00000000)
T6D3C 000:591.155 - 0.003ms returns 0
T6D3C 000:591.159 JLINK_WriteReg(R13 (SP), 0x20008000)
T6D3C 000:591.163 - 0.004ms returns 0
T6D3C 000:591.167 JLINK_WriteReg(R14, 0x20000001)
T6D3C 000:591.170 - 0.003ms returns 0
T6D3C 000:591.174 JLINK_WriteReg(R15 (PC), 0x2000014C)
T6D3C 000:591.177 - 0.003ms returns 0
T6D3C 000:591.181 JLINK_WriteReg(XPSR, 0x01000000)
T6D3C 000:591.185 - 0.003ms returns 0
T6D3C 000:591.189 JLINK_WriteReg(MSP, 0x20008000)
T6D3C 000:591.192 - 0.003ms returns 0
T6D3C 000:591.196 JLINK_WriteReg(PSP, 0x20008000)
T6D3C 000:591.199 - 0.003ms returns 0
T6D3C 000:591.203 JLINK_WriteReg(CFBP, 0x00000000)
T6D3C 000:591.206 - 0.003ms returns 0
T6D3C 000:591.211 JLINK_SetBPEx(Addr = 0x20000000, Type = 0xFFFFFFF2)
T6D3C 000:591.215 - 0.005ms returns 0x00000007
T6D3C 000:591.219 JLINK_Go()
T6D3C 000:591.227   CPU_WriteMem(4 bytes @ 0xE0002000)
T6D3C 000:591.877   CPU_ReadMem(4 bytes @ 0xE0001000)
T6D3C 000:597.576 - 6.356ms 
T6D3C 000:597.621 JLINK_IsHalted()
T6D3C 000:598.269 - 0.648ms returns FALSE
T6D3C 000:598.288 JLINK_HasError()
T6D3C 000:599.925 JLINK_IsHalted()
T6D3C 000:600.601 - 0.675ms returns FALSE
T6D3C 000:600.629 JLINK_HasError()
T6D3C 000:601.917 JLINK_IsHalted()
T6D3C 000:602.562 - 0.645ms returns FALSE
T6D3C 000:602.586 JLINK_HasError()
T6D3C 000:603.913 JLINK_IsHalted()
T6D3C 000:604.610 - 0.697ms returns FALSE
T6D3C 000:604.638 JLINK_HasError()
T6D3C 000:605.907 JLINK_IsHalted()
T6D3C 000:610.951 - 5.043ms returns TRUE
T6D3C 000:610.993 JLINK_ReadReg(R15 (PC))
T6D3C 000:611.004 - 0.010ms returns 0x20000000
T6D3C 000:611.015 JLINK_ClrBPEx(BPHandle = 0x00000007)
T6D3C 000:611.025 - 0.010ms returns 0x00
T6D3C 000:611.037 JLINK_ReadReg(R0)
T6D3C 000:611.046 - 0.008ms returns 0x00000000
T6D3C 000:611.104 JLINK_WriteMem(0x20000250, 0x1B0 Bytes, ...)
T6D3C 000:611.115   Data:  C4 F2 02 02 94 45 29 D0 40 F2 88 42 22 E0 00 BF ...
T6D3C 000:611.136   CPU_WriteMem(432 bytes @ 0x20000250)
T6D3C 000:615.706 - 4.600ms returns 0x1B0
T6D3C 000:615.831 JLINK_WriteMem(0x20000400, 0x250 Bytes, ...)
T6D3C 000:615.844   Data:  AC 45 28 D0 45 F2 1C 45 20 E0 00 BF 40 F2 28 45 ...
T6D3C 000:615.869   CPU_WriteMem(592 bytes @ 0x20000400)
T6D3C 000:667.319 - 51.485ms returns 0x250
T6D3C 000:667.565 JLINK_HasError()
T6D3C 000:667.615 JLINK_WriteReg(R0, 0x08000C00)
T6D3C 000:667.638 - 0.023ms returns 0
T6D3C 000:667.660 JLINK_WriteReg(R1, 0x00000400)
T6D3C 000:667.677 - 0.017ms returns 0
T6D3C 000:667.697 JLINK_WriteReg(R2, 0x20000250)
T6D3C 000:667.714 - 0.016ms returns 0
T6D3C 000:667.734 JLINK_WriteReg(R3, 0x00000000)
T6D3C 000:667.751 - 0.016ms returns 0
T6D3C 000:667.770 JLINK_WriteReg(R4, 0x00000000)
T6D3C 000:667.787 - 0.016ms returns 0
T6D3C 000:667.807 JLINK_WriteReg(R5, 0x00000000)
T6D3C 000:667.823 - 0.016ms returns 0
T6D3C 000:667.844 JLINK_WriteReg(R6, 0x00000000)
T6D3C 000:667.861 - 0.016ms returns 0
T6D3C 000:667.881 JLINK_WriteReg(R7, 0x00000000)
T6D3C 000:667.897 - 0.016ms returns 0
T6D3C 000:667.917 JLINK_WriteReg(R8, 0x00000000)
T6D3C 000:667.932 - 0.014ms returns 0
T6D3C 000:667.950 JLINK_WriteReg(R9, 0x2000024C)
T6D3C 000:667.965 - 0.015ms returns 0
T6D3C 000:667.983 JLINK_WriteReg(R10, 0x00000000)
T6D3C 000:667.999 - 0.016ms returns 0
T6D3C 000:668.016 JLINK_WriteReg(R11, 0x00000000)
T6D3C 000:668.032 - 0.015ms returns 0
T6D3C 000:668.050 JLINK_WriteReg(R12, 0x00000000)
T6D3C 000:668.066 - 0.015ms returns 0
T6D3C 000:668.084 JLINK_WriteReg(R13 (SP), 0x20008000)
T6D3C 000:668.100 - 0.017ms returns 0
T6D3C 000:668.118 JLINK_WriteReg(R14, 0x20000001)
T6D3C 000:668.133 - 0.015ms returns 0
T6D3C 000:668.151 JLINK_WriteReg(R15 (PC), 0x2000014C)
T6D3C 000:668.167 - 0.015ms returns 0
T6D3C 000:668.185 JLINK_WriteReg(XPSR, 0x01000000)
T6D3C 000:668.200 - 0.015ms returns 0
T6D3C 000:668.217 JLINK_WriteReg(MSP, 0x20008000)
T6D3C 000:668.230 - 0.013ms returns 0
T6D3C 000:668.263 JLINK_WriteReg(PSP, 0x20008000)
T6D3C 000:668.277 - 0.014ms returns 0
T6D3C 000:668.293 JLINK_WriteReg(CFBP, 0x00000000)
T6D3C 000:668.307 - 0.013ms returns 0
T6D3C 000:668.325 JLINK_SetBPEx(Addr = 0x20000000, Type = 0xFFFFFFF2)
T6D3C 000:668.342 - 0.018ms returns 0x00000008
T6D3C 000:668.358 JLINK_Go()
T6D3C 000:668.385   CPU_WriteMem(4 bytes @ 0xE0002000)
T6D3C 000:669.356   CPU_ReadMem(4 bytes @ 0xE0001000)
T6D3C 000:675.296 - 6.936ms 
T6D3C 000:675.346 JLINK_IsHalted()
T6D3C 000:676.071 - 0.724ms returns FALSE
T6D3C 000:676.119 JLINK_HasError()
T6D3C 000:677.690 JLINK_IsHalted()
T6D3C 000:678.850 - 1.159ms returns FALSE
T6D3C 000:678.927 JLINK_HasError()
T6D3C 000:680.684 JLINK_IsHalted()
T6D3C 000:681.673 - 0.989ms returns FALSE
T6D3C 000:681.773 JLINK_HasError()
T6D3C 000:683.670 JLINK_IsHalted()
T6D3C 000:689.131 - 5.461ms returns TRUE
T6D3C 000:689.208 JLINK_ReadReg(R15 (PC))
T6D3C 000:689.228 - 0.020ms returns 0x20000000
T6D3C 000:689.250 JLINK_ClrBPEx(BPHandle = 0x00000008)
T6D3C 000:689.269 - 0.019ms returns 0x00
T6D3C 000:689.292 JLINK_ReadReg(R0)
T6D3C 000:689.309 - 0.017ms returns 0x00000000
T6D3C 000:689.419 JLINK_WriteMem(0x20000250, 0x1B0 Bytes, ...)
T6D3C 000:689.439   Data:  02 23 CD E9 00 12 C2 F2 00 40 A2 21 64 22 02 92 ...
T6D3C 000:689.482   CPU_WriteMem(432 bytes @ 0x20000250)
T6D3C 000:694.163 - 4.743ms returns 0x1B0
T6D3C 000:694.255 JLINK_WriteMem(0x20000400, 0x250 Bytes, ...)
T6D3C 000:694.274   Data:  EF F3 10 80 72 B6 00 BF FE E7 00 00 00 00 00 00 ...
T6D3C 000:694.306   CPU_WriteMem(592 bytes @ 0x20000400)
T6D3C 000:700.362 - 6.107ms returns 0x250
T6D3C 000:700.467 JLINK_HasError()
T6D3C 000:700.507 JLINK_WriteReg(R0, 0x08001000)
T6D3C 000:700.534 - 0.027ms returns 0
T6D3C 000:700.554 JLINK_WriteReg(R1, 0x00000400)
T6D3C 000:700.571 - 0.017ms returns 0
T6D3C 000:700.592 JLINK_WriteReg(R2, 0x20000250)
T6D3C 000:700.608 - 0.017ms returns 0
T6D3C 000:700.628 JLINK_WriteReg(R3, 0x00000000)
T6D3C 000:700.644 - 0.016ms returns 0
T6D3C 000:700.663 JLINK_WriteReg(R4, 0x00000000)
T6D3C 000:700.680 - 0.016ms returns 0
T6D3C 000:700.699 JLINK_WriteReg(R5, 0x00000000)
T6D3C 000:700.716 - 0.016ms returns 0
T6D3C 000:700.736 JLINK_WriteReg(R6, 0x00000000)
T6D3C 000:700.752 - 0.016ms returns 0
T6D3C 000:700.771 JLINK_WriteReg(R7, 0x00000000)
T6D3C 000:700.787 - 0.016ms returns 0
T6D3C 000:700.807 JLINK_WriteReg(R8, 0x00000000)
T6D3C 000:700.823 - 0.016ms returns 0
T6D3C 000:700.843 JLINK_WriteReg(R9, 0x2000024C)
T6D3C 000:700.859 - 0.016ms returns 0
T6D3C 000:700.878 JLINK_WriteReg(R10, 0x00000000)
T6D3C 000:700.895 - 0.016ms returns 0
T6D3C 000:700.914 JLINK_WriteReg(R11, 0x00000000)
T6D3C 000:700.930 - 0.016ms returns 0
T6D3C 000:700.949 JLINK_WriteReg(R12, 0x00000000)
T6D3C 000:700.965 - 0.016ms returns 0
T6D3C 000:700.985 JLINK_WriteReg(R13 (SP), 0x20008000)
T6D3C 000:701.003 - 0.018ms returns 0
T6D3C 000:701.023 JLINK_WriteReg(R14, 0x20000001)
T6D3C 000:701.040 - 0.017ms returns 0
T6D3C 000:701.059 JLINK_WriteReg(R15 (PC), 0x2000014C)
T6D3C 000:701.076 - 0.016ms returns 0
T6D3C 000:701.095 JLINK_WriteReg(XPSR, 0x01000000)
T6D3C 000:701.111 - 0.016ms returns 0
T6D3C 000:701.131 JLINK_WriteReg(MSP, 0x20008000)
T6D3C 000:701.147 - 0.016ms returns 0
T6D3C 000:701.167 JLINK_WriteReg(PSP, 0x20008000)
T6D3C 000:701.184 - 0.017ms returns 0
T6D3C 000:701.203 JLINK_WriteReg(CFBP, 0x00000000)
T6D3C 000:701.220 - 0.016ms returns 0
T6D3C 000:701.241 JLINK_SetBPEx(Addr = 0x20000000, Type = 0xFFFFFFF2)
T6D3C 000:701.260 - 0.020ms returns 0x00000009
T6D3C 000:701.280 JLINK_Go()
T6D3C 000:701.305   CPU_WriteMem(4 bytes @ 0xE0002000)
T6D3C 000:702.238   CPU_ReadMem(4 bytes @ 0xE0001000)
T6D3C 000:708.262 - 6.981ms 
T6D3C 000:708.334 JLINK_IsHalted()
T6D3C 000:709.284 - 0.947ms returns FALSE
T6D3C 000:709.462 JLINK_HasError()
T6D3C 000:711.580 JLINK_IsHalted()
T6D3C 000:712.577 - 0.996ms returns FALSE
T6D3C 000:712.750 JLINK_HasError()
T6D3C 000:714.580 JLINK_IsHalted()
T6D3C 000:715.528 - 0.946ms returns FALSE
T6D3C 000:715.769 JLINK_HasError()
T6D3C 000:717.561 JLINK_IsHalted()
T6D3C 000:723.289 - 5.726ms returns TRUE
T6D3C 000:723.396 JLINK_ReadReg(R15 (PC))
T6D3C 000:723.420 - 0.024ms returns 0x20000000
T6D3C 000:723.445 JLINK_ClrBPEx(BPHandle = 0x00000009)
T6D3C 000:723.467 - 0.022ms returns 0x00
T6D3C 000:723.495 JLINK_ReadReg(R0)
T6D3C 000:723.514 - 0.019ms returns 0x00000000
T6D3C 000:723.623 JLINK_WriteMem(0x20000250, 0x1B0 Bytes, ...)
T6D3C 000:723.645   Data:  64 20 00 90 20 46 03 F0 F7 FF 02 B0 10 BD 00 00 ...
T6D3C 000:723.691   CPU_WriteMem(432 bytes @ 0x20000250)
T6D3C 000:775.032 - 51.406ms returns 0x1B0
T6D3C 000:775.262 JLINK_WriteMem(0x20000400, 0x250 Bytes, ...)
T6D3C 000:775.285   Data:  09 F1 01 09 80 F0 98 80 78 78 09 EB 49 0A CD F8 ...
T6D3C 000:775.334   CPU_WriteMem(592 bytes @ 0x20000400)
T6D3C 000:781.486 - 6.224ms returns 0x250
T6D3C 000:781.549 JLINK_HasError()
T6D3C 000:781.574 JLINK_WriteReg(R0, 0x08001400)
T6D3C 000:781.586 - 0.013ms returns 0
T6D3C 000:781.598 JLINK_WriteReg(R1, 0x00000400)
T6D3C 000:781.608 - 0.009ms returns 0
T6D3C 000:781.619 JLINK_WriteReg(R2, 0x20000250)
T6D3C 000:781.629 - 0.009ms returns 0
T6D3C 000:781.639 JLINK_WriteReg(R3, 0x00000000)
T6D3C 000:781.649 - 0.009ms returns 0
T6D3C 000:781.660 JLINK_WriteReg(R4, 0x00000000)
T6D3C 000:781.669 - 0.009ms returns 0
T6D3C 000:781.680 JLINK_WriteReg(R5, 0x00000000)
T6D3C 000:781.689 - 0.009ms returns 0
T6D3C 000:781.702 JLINK_WriteReg(R6, 0x00000000)
T6D3C 000:781.711 - 0.009ms returns 0
T6D3C 000:781.722 JLINK_WriteReg(R7, 0x00000000)
T6D3C 000:781.731 - 0.009ms returns 0
T6D3C 000:781.742 JLINK_WriteReg(R8, 0x00000000)
T6D3C 000:781.751 - 0.009ms returns 0
T6D3C 000:781.762 JLINK_WriteReg(R9, 0x2000024C)
T6D3C 000:781.771 - 0.009ms returns 0
T6D3C 000:781.782 JLINK_WriteReg(R10, 0x00000000)
T6D3C 000:781.791 - 0.009ms returns 0
T6D3C 000:781.802 JLINK_WriteReg(R11, 0x00000000)
T6D3C 000:781.811 - 0.009ms returns 0
T6D3C 000:781.822 JLINK_WriteReg(R12, 0x00000000)
T6D3C 000:781.831 - 0.009ms returns 0
T6D3C 000:781.842 JLINK_WriteReg(R13 (SP), 0x20008000)
T6D3C 000:781.853 - 0.010ms returns 0
T6D3C 000:781.863 JLINK_WriteReg(R14, 0x20000001)
T6D3C 000:781.873 - 0.009ms returns 0
T6D3C 000:781.884 JLINK_WriteReg(R15 (PC), 0x2000014C)
T6D3C 000:781.893 - 0.009ms returns 0
T6D3C 000:781.904 JLINK_WriteReg(XPSR, 0x01000000)
T6D3C 000:781.914 - 0.009ms returns 0
T6D3C 000:781.925 JLINK_WriteReg(MSP, 0x20008000)
T6D3C 000:781.934 - 0.009ms returns 0
T6D3C 000:781.945 JLINK_WriteReg(PSP, 0x20008000)
T6D3C 000:781.954 - 0.009ms returns 0
T6D3C 000:781.965 JLINK_WriteReg(CFBP, 0x00000000)
T6D3C 000:781.975 - 0.009ms returns 0
T6D3C 000:781.987 JLINK_SetBPEx(Addr = 0x20000000, Type = 0xFFFFFFF2)
T6D3C 000:781.998 - 0.012ms returns 0x0000000A
T6D3C 000:782.009 JLINK_Go()
T6D3C 000:782.026   CPU_WriteMem(4 bytes @ 0xE0002000)
T6D3C 000:782.830   CPU_ReadMem(4 bytes @ 0xE0001000)
T6D3C 000:788.927 - 6.916ms 
T6D3C 000:789.011 JLINK_IsHalted()
T6D3C 000:789.871 - 0.857ms returns FALSE
T6D3C 000:789.959 JLINK_HasError()
T6D3C 000:791.328 JLINK_IsHalted()
T6D3C 000:792.069 - 0.740ms returns FALSE
T6D3C 000:792.101 JLINK_HasError()
T6D3C 000:793.322 JLINK_IsHalted()
T6D3C 000:794.056 - 0.733ms returns FALSE
T6D3C 000:794.090 JLINK_HasError()
T6D3C 000:795.309 JLINK_IsHalted()
T6D3C 000:795.957 - 0.648ms returns FALSE
T6D3C 000:795.981 JLINK_HasError()
T6D3C 000:797.304 JLINK_IsHalted()
T6D3C 000:802.368 - 5.064ms returns TRUE
T6D3C 000:802.400 JLINK_ReadReg(R15 (PC))
T6D3C 000:802.405 - 0.005ms returns 0x20000000
T6D3C 000:802.410 JLINK_ClrBPEx(BPHandle = 0x0000000A)
T6D3C 000:802.414 - 0.004ms returns 0x00
T6D3C 000:802.419 JLINK_ReadReg(R0)
T6D3C 000:802.422 - 0.003ms returns 0x00000000
T6D3C 000:802.458 JLINK_WriteMem(0x20000250, 0x1B0 Bytes, ...)
T6D3C 000:802.462   Data:  80 51 01 22 28 46 03 F0 53 FC 7C 70 4A F6 AB 71 ...
T6D3C 000:802.474   CPU_WriteMem(432 bytes @ 0x20000250)
T6D3C 000:806.981 - 4.522ms returns 0x1B0
T6D3C 000:807.038 JLINK_WriteMem(0x20000400, 0x250 Bytes, ...)
T6D3C 000:807.053   Data:  02 B0 BD E8 B0 40 08 46 70 47 00 BF 14 60 51 59 ...
T6D3C 000:807.064   CPU_WriteMem(592 bytes @ 0x20000400)
T6D3C 000:812.889 - 5.849ms returns 0x250
T6D3C 000:812.947 JLINK_HasError()
T6D3C 000:812.954 JLINK_WriteReg(R0, 0x08001800)
T6D3C 000:812.959 - 0.005ms returns 0
T6D3C 000:812.963 JLINK_WriteReg(R1, 0x00000400)
T6D3C 000:812.967 - 0.003ms returns 0
T6D3C 000:812.971 JLINK_WriteReg(R2, 0x20000250)
T6D3C 000:812.974 - 0.003ms returns 0
T6D3C 000:812.978 JLINK_WriteReg(R3, 0x00000000)
T6D3C 000:812.981 - 0.003ms returns 0
T6D3C 000:812.985 JLINK_WriteReg(R4, 0x00000000)
T6D3C 000:812.989 - 0.003ms returns 0
T6D3C 000:812.993 JLINK_WriteReg(R5, 0x00000000)
T6D3C 000:812.996 - 0.003ms returns 0
T6D3C 000:813.000 JLINK_WriteReg(R6, 0x00000000)
T6D3C 000:813.003 - 0.003ms returns 0
T6D3C 000:813.007 JLINK_WriteReg(R7, 0x00000000)
T6D3C 000:813.010 - 0.003ms returns 0
T6D3C 000:813.014 JLINK_WriteReg(R8, 0x00000000)
T6D3C 000:813.017 - 0.003ms returns 0
T6D3C 000:813.021 JLINK_WriteReg(R9, 0x2000024C)
T6D3C 000:813.024 - 0.003ms returns 0
T6D3C 000:813.028 JLINK_WriteReg(R10, 0x00000000)
T6D3C 000:813.032 - 0.003ms returns 0
T6D3C 000:813.035 JLINK_WriteReg(R11, 0x00000000)
T6D3C 000:813.039 - 0.003ms returns 0
T6D3C 000:813.043 JLINK_WriteReg(R12, 0x00000000)
T6D3C 000:813.046 - 0.003ms returns 0
T6D3C 000:813.050 JLINK_WriteReg(R13 (SP), 0x20008000)
T6D3C 000:813.054 - 0.004ms returns 0
T6D3C 000:813.058 JLINK_WriteReg(R14, 0x20000001)
T6D3C 000:813.061 - 0.003ms returns 0
T6D3C 000:813.065 JLINK_WriteReg(R15 (PC), 0x2000014C)
T6D3C 000:813.068 - 0.003ms returns 0
T6D3C 000:813.072 JLINK_WriteReg(XPSR, 0x01000000)
T6D3C 000:813.076 - 0.003ms returns 0
T6D3C 000:813.080 JLINK_WriteReg(MSP, 0x20008000)
T6D3C 000:813.083 - 0.003ms returns 0
T6D3C 000:813.087 JLINK_WriteReg(PSP, 0x20008000)
T6D3C 000:813.090 - 0.003ms returns 0
T6D3C 000:813.094 JLINK_WriteReg(CFBP, 0x00000000)
T6D3C 000:813.098 - 0.003ms returns 0
T6D3C 000:813.102 JLINK_SetBPEx(Addr = 0x20000000, Type = 0xFFFFFFF2)
T6D3C 000:813.107 - 0.004ms returns 0x0000000B
T6D3C 000:813.111 JLINK_Go()
T6D3C 000:813.118   CPU_WriteMem(4 bytes @ 0xE0002000)
T6D3C 000:813.794   CPU_ReadMem(4 bytes @ 0xE0001000)
T6D3C 000:819.980 - 6.867ms 
T6D3C 000:820.042 JLINK_IsHalted()
T6D3C 000:820.681 - 0.639ms returns FALSE
T6D3C 000:820.698 JLINK_HasError()
T6D3C 000:822.220 JLINK_IsHalted()
T6D3C 000:822.869 - 0.648ms returns FALSE
T6D3C 000:822.893 JLINK_HasError()
T6D3C 000:824.210 JLINK_IsHalted()
T6D3C 000:824.829 - 0.618ms returns FALSE
T6D3C 000:824.875 JLINK_HasError()
T6D3C 000:826.203 JLINK_IsHalted()
T6D3C 000:826.821 - 0.617ms returns FALSE
T6D3C 000:826.837 JLINK_HasError()
T6D3C 000:828.198 JLINK_IsHalted()
T6D3C 000:833.154 - 4.955ms returns TRUE
T6D3C 000:833.179 JLINK_ReadReg(R15 (PC))
T6D3C 000:833.184 - 0.005ms returns 0x20000000
T6D3C 000:833.189 JLINK_ClrBPEx(BPHandle = 0x0000000B)
T6D3C 000:833.193 - 0.004ms returns 0x00
T6D3C 000:833.198 JLINK_ReadReg(R0)
T6D3C 000:833.202 - 0.003ms returns 0x00000000
T6D3C 000:833.236 JLINK_WriteMem(0x20000250, 0x1B0 Bytes, ...)
T6D3C 000:833.240   Data:  9A 6E 02 F0 F8 42 A2 42 03 D1 9A 6E 22 F0 00 42 ...
T6D3C 000:833.251   CPU_WriteMem(432 bytes @ 0x20000250)
T6D3C 000:886.351 - 53.114ms returns 0x1B0
T6D3C 000:886.451 JLINK_WriteMem(0x20000400, 0x250 Bytes, ...)
T6D3C 000:886.460   Data:  96 42 4D D1 62 E0 00 BF 1F 22 0E 68 C1 F2 F0 42 ...
T6D3C 000:886.480   CPU_WriteMem(592 bytes @ 0x20000400)
T6D3C 000:892.421 - 5.970ms returns 0x250
T6D3C 000:892.540 JLINK_HasError()
T6D3C 000:892.562 JLINK_WriteReg(R0, 0x08001C00)
T6D3C 000:892.573 - 0.011ms returns 0
T6D3C 000:892.583 JLINK_WriteReg(R1, 0x00000400)
T6D3C 000:892.591 - 0.008ms returns 0
T6D3C 000:892.600 JLINK_WriteReg(R2, 0x20000250)
T6D3C 000:892.608 - 0.008ms returns 0
T6D3C 000:892.618 JLINK_WriteReg(R3, 0x00000000)
T6D3C 000:892.626 - 0.008ms returns 0
T6D3C 000:892.635 JLINK_WriteReg(R4, 0x00000000)
T6D3C 000:892.650 - 0.015ms returns 0
T6D3C 000:892.663 JLINK_WriteReg(R5, 0x00000000)
T6D3C 000:892.671 - 0.007ms returns 0
T6D3C 000:892.680 JLINK_WriteReg(R6, 0x00000000)
T6D3C 000:892.688 - 0.007ms returns 0
T6D3C 000:892.697 JLINK_WriteReg(R7, 0x00000000)
T6D3C 000:892.705 - 0.007ms returns 0
T6D3C 000:892.714 JLINK_WriteReg(R8, 0x00000000)
T6D3C 000:892.722 - 0.007ms returns 0
T6D3C 000:892.731 JLINK_WriteReg(R9, 0x2000024C)
T6D3C 000:892.739 - 0.008ms returns 0
T6D3C 000:892.748 JLINK_WriteReg(R10, 0x00000000)
T6D3C 000:892.756 - 0.008ms returns 0
T6D3C 000:892.765 JLINK_WriteReg(R11, 0x00000000)
T6D3C 000:892.773 - 0.007ms returns 0
T6D3C 000:892.782 JLINK_WriteReg(R12, 0x00000000)
T6D3C 000:892.790 - 0.007ms returns 0
T6D3C 000:892.799 JLINK_WriteReg(R13 (SP), 0x20008000)
T6D3C 000:892.808 - 0.009ms returns 0
T6D3C 000:892.817 JLINK_WriteReg(R14, 0x20000001)
T6D3C 000:892.825 - 0.007ms returns 0
T6D3C 000:892.834 JLINK_WriteReg(R15 (PC), 0x2000014C)
T6D3C 000:892.843 - 0.008ms returns 0
T6D3C 000:892.852 JLINK_WriteReg(XPSR, 0x01000000)
T6D3C 000:892.860 - 0.008ms returns 0
T6D3C 000:892.869 JLINK_WriteReg(MSP, 0x20008000)
T6D3C 000:892.877 - 0.007ms returns 0
T6D3C 000:892.886 JLINK_WriteReg(PSP, 0x20008000)
T6D3C 000:892.894 - 0.008ms returns 0
T6D3C 000:892.903 JLINK_WriteReg(CFBP, 0x00000000)
T6D3C 000:892.911 - 0.007ms returns 0
T6D3C 000:892.921 JLINK_SetBPEx(Addr = 0x20000000, Type = 0xFFFFFFF2)
T6D3C 000:892.932 - 0.011ms returns 0x0000000C
T6D3C 000:892.941 JLINK_Go()
T6D3C 000:892.957   CPU_WriteMem(4 bytes @ 0xE0002000)
T6D3C 000:893.727   CPU_ReadMem(4 bytes @ 0xE0001000)
T6D3C 000:899.831 - 6.889ms 
T6D3C 000:899.895 JLINK_IsHalted()
T6D3C 000:900.580 - 0.685ms returns FALSE
T6D3C 000:900.622 JLINK_HasError()
T6D3C 000:901.966 JLINK_IsHalted()
T6D3C 000:902.824 - 0.858ms returns FALSE
